  vcan0  00000285   [8]  00 00 00 00 00 00 00 00
  vcan0  00000285   [8]  00 00 00 00 00 00 00 00
  vcan0  00000285   [8]  00 00 00 00 00 00 00 00
  vcan0  00000285   [8]  00 00 00 00 00 00 00 00
  vcan0  00000285   [8]  00 00 00 00 00 00 00 00
  vcan0  00000285   [8]  00 00 00 00 00 00 00 00
  vcan0  00000285   [8]  00 00 00 00 00 00 00 00
  vcan0  00000285   [8]  00 00 00 00 00 00 00 00
  vcan0  00000285   [8]  01 90 01 90 00 00 00 00
  vcan0  00000285   [8]  04 B0 04 B0 00 00 00 00
  vcan0  00000285   [8]  06 40 06 40 00 00 00 00
  vcan0  00000285   [8]  07 D0 07 D0 00 00 00 00
  vcan0  00000285   [8]  08 98 08 98 00 00 00 00
  vcan0  00000285   [8]  08 98 08 98 00 00 00 00
  vcan0  00000285   [8]  09 60 09 60 00 00 00 00
  vcan0  00000285   [8]  09 60 09 60 00 00 00 00
  vcan0  00000285   [8]  09 60 09 60 00 00 00 00
  vcan0  00000285   [8]  09 60 09 60 00 00 00 00
  vcan0  00000285   [8]  09 60 09 60 00 00 00 00
  vcan0  00000285   [8]  0A 28 0A 28 00 00 00 00
  vcan0  00000285   [8]  0A 28 0A 28 00 00 00 00
  vcan0  00000285   [8]  0A 28 0A 28 00 00 00 00
  vcan0  00000285   [8]  0A 28 0A 28 00 00 00 00
  vcan0  00000285   [8]  0A 28 0A 28 00 00 00 00
  vcan0  00000285   [8]  0A 28 0A 28 00 00 00 00
  vcan0  00000285   [8]  0A F0 0A F0 00 00 00 00
  vcan0  00000285   [8]  0B B8 0B B8 00 00 00 00
  vcan0  00000285   [8]  0C 80 0C 80 00 00 00 00
  vcan0  00000285   [8]  0E 10 0E 10 00 00 00 00
  vcan0  00000285   [8]  0E D8 0E D8 00 00 00 00
  vcan0  00000285   [8]  0F A0 0F A0 00 00 00 00
  vcan0  00000285   [8]  10 68 10 68 00 00 00 00
  vcan0  00000285   [8]  10 68 10 68 00 00 00 00
  vcan0  00000285   [8]  10 68 10 68 00 00 00 00
  vcan0  00000285   [8]  11 30 11 30 00 00 00 00
  vcan0  00000285   [8]  11 30 11 30 00 00 00 00
  vcan0  00000285   [8]  11 30 11 30 00 00 00 00
  vcan0  00000285   [8]  11 30 11 30 00 00 00 00
  vcan0  00000285   [8]  11 30 11 30 00 00 00 00
  vcan0  00000285   [8]  11 F8 11 F8 00 00 00 00
  vcan0  00000285   [8]  13 88 13 88 00 00 00 00
  vcan0  00000285   [8]  14 50 14 50 00 00 00 00
  vcan0  00000285   [8]  16 A8 16 A8 00 00 00 00
  vcan0  00000285   [8]  17 70 17 70 00 00 00 00
  vcan0  00000285   [8]  18 38 18 38 00 00 00 00
  vcan0  00000285   [8]  19 00 19 00 00 00 00 00
  vcan0  00000285   [8]  19 00 19 00 00 00 00 00
  vcan0  00000285   [8]  19 00 19 00 00 00 00 00
  vcan0  00000285   [8]  19 00 19 00 00 00 00 00
  vcan0  00000285   [8]  19 00 19 00 00 00 00 00
  vcan0  00000285   [8]  19 C8 19 C8 00 00 00 00
  vcan0  00000285   [8]  19 C8 19 C8 00 00 00 00
  vcan0  00000285   [8]  19 C8 19 C8 00 00 00 00
  vcan0  00000285   [8]  1B 58 1B 58 00 00 00 00
  vcan0  00000285   [8]  1D B0 1D B0 00 00 00 00
  vcan0  00000285   [8]  20 D0 20 D0 00 00 00 00
  vcan0  00000285   [8]  23 28 23 28 00 00 00 00
  vcan0  00000285   [8]  24 B8 24 B8 00 00 00 00
  vcan0  00000285   [8]  27 10 27 10 00 00 00 00
  vcan0  00000285   [8]  27 D8 27 D8 00 00 00 00
  vcan0  00000285   [8]  29 68 29 68 00 00 00 00
  vcan0  00000285   [8]  2A F8 2A F8 00 00 00 00
  vcan0  00000285   [8]  2C 88 2C 88 00 00 00 00
  vcan0  00000285   [8]  2E 18 2E 18 00 00 00 00
  vcan0  00000285   [8]  2F A8 2F A8 00 00 00 00
  vcan0  00000285   [8]  31 38 31 38 00 00 00 00
  vcan0  00000285   [8]  32 00 32 00 00 00 00 00
  vcan0  00000285   [8]  32 00 32 00 00 00 00 00
  vcan0  00000285   [8]  32 C8 32 C8 00 00 00 00
  vcan0  00000285   [8]  33 90 33 90 00 00 00 00
  vcan0  00000285   [8]  33 90 33 90 00 00 00 00
  vcan0  00000285   [8]  33 90 33 90 00 00 00 00
  vcan0  00000285   [8]  33 90 33 90 00 00 00 00
  vcan0  00000285   [8]  33 90 33 90 00 00 00 00
  vcan0  00000285   [8]  33 90 33 90 00 00 00 00
  vcan0  00000285   [8]  34 58 34 58 00 00 00 00
  vcan0  00000285   [8]  35 E8 35 E8 00 00 00 00
  vcan0  00000285   [8]  37 78 37 78 00 00 00 00
  vcan0  00000285   [8]  39 08 39 08 00 00 00 00
  vcan0  00000285   [8]  3A 98 3A 98 00 00 00 00
  vcan0  00000285   [8]  3B 60 3B 60 00 00 00 00
  vcan0  00000285   [8]  3C 28 3C 28 00 00 00 00
  vcan0  00000285   [8]  3C F0 3C F0 00 00 00 00
  vcan0  00000285   [8]  3D B8 3D B8 00 00 00 00
  vcan0  00000285   [8]  3D B8 3D B8 00 00 00 00
  vcan0  00000285   [8]  3D B8 3D B8 00 00 00 00
  vcan0  00000285   [8]  3E 80 3E 80 00 00 00 00
  vcan0  00000285   [8]  40 10 40 10 00 00 00 00
  vcan0  00000285   [8]  40 D8 40 D8 00 00 00 00
  vcan0  00000285   [8]  42 68 42 68 00 00 00 00
  vcan0  00000285   [8]  43 30 43 30 00 00 00 00
  vcan0  00000285   [8]  44 C0 44 C0 00 00 00 00
  vcan0  00000285   [8]  44 C0 44 C0 00 00 00 00
  vcan0  00000285   [8]  45 88 45 88 00 00 00 00
  vcan0  00000285   [8]  45 88 45 88 00 00 00 00
  vcan0  00000285   [8]  45 88 45 88 00 00 00 00
  vcan0  00000285   [8]  45 88 45 88 00 00 00 00
  vcan0  00000285   [8]  45 88 45 88 00 00 00 00
  vcan0  00000285   [8]  45 88 45 88 00 00 00 00
  vcan0  00000285   [8]  45 88 45 88 00 00 00 00
  vcan0  00000285   [8]  45 88 45 88 00 00 00 00
  vcan0  00000285   [8]  44 C0 44 C0 00 00 00 00
  vcan0  00000285   [8]  42 68 42 68 00 00 00 00
  vcan0  00000285   [8]  3F 48 3F 48 00 00 00 00
  vcan0  00000285   [8]  3C 28 3C 28 00 00 00 00
  vcan0  00000285   [8]  39 D0 39 D0 00 00 00 00
  vcan0  00000285   [8]  36 B0 36 B0 00 00 00 00
  vcan0  00000285   [8]  33 90 33 90 00 00 00 00
  vcan0  00000285   [8]  31 38 31 38 00 00 00 00
  vcan0  00000285   [8]  2E E0 2E E0 00 00 00 00
  vcan0  00000285   [8]  2B C0 2B C0 00 00 00 00
  vcan0  00000285   [8]  28 A0 28 A0 00 00 00 00
  vcan0  00000285   [8]  25 80 25 80 00 00 00 00
  vcan0  00000285   [8]  23 28 23 28 00 00 00 00
  vcan0  00000285   [8]  20 D0 20 D0 00 00 00 00
  vcan0  00000285   [8]  20 08 20 08 00 00 00 00
  vcan0  00000285   [8]  1E 78 1E 78 00 00 00 00
  vcan0  00000285   [8]  1C E8 1C E8 00 00 00 00
  vcan0  00000285   [8]  1C 20 1C 20 00 00 00 00
  vcan0  00000285   [8]  1B 58 1B 58 00 00 00 00
  vcan0  00000285   [8]  19 C8 19 C8 00 00 00 00
  vcan0  00000285   [8]  19 00 19 00 00 00 00 00
  vcan0  00000285   [8]  19 00 19 00 00 00 00 00
  vcan0  00000285   [8]  17 70 17 70 00 00 00 00
  vcan0  00000285   [8]  16 A8 16 A8 00 00 00 00
  vcan0  00000285   [8]  15 E0 15 E0 00 00 00 00
  vcan0  00000285   [8]  15 18 15 18 00 00 00 00
  vcan0  00000285   [8]  14 50 14 50 00 00 00 00
  vcan0  00000285   [8]  13 88 13 88 00 00 00 00
  vcan0  00000285   [8]  12 C0 12 C0 00 00 00 00
  vcan0  00000285   [8]  11 F8 11 F8 00 00 00 00
  vcan0  00000285   [8]  11 F8 11 F8 00 00 00 00
  vcan0  00000285   [8]  11 F8 11 F8 00 00 00 00
  vcan0  00000285   [8]  11 30 11 30 00 00 00 00
  vcan0  00000285   [8]  10 68 10 68 00 00 00 00
  vcan0  00000285   [8]  0E D8 0E D8 00 00 00 00
  vcan0  00000285   [8]  0D 48 0D 48 00 00 00 00
  vcan0  00000285   [8]  0B B8 0B B8 00 00 00 00
  vcan0  00000285   [8]  0A 28 0A 28 00 00 00 00
  vcan0  00000285   [8]  09 60 09 60 00 00 00 00
  vcan0  00000285   [8]  08 98 08 98 00 00 00 00
  vcan0  00000285   [8]  07 D0 07 D0 00 00 00 00
  vcan0  00000285   [8]  06 40 06 40 00 00 00 00
  vcan0  00000285   [8]  05 78 05 78 00 00 00 00
  vcan0  00000285   [8]  03 E8 03 E8 00 00 00 00
  vcan0  00000285   [8]  02 58 02 58 00 00 00 00
  vcan0  00000285   [8]  01 90 01 90 00 00 00 00
  vcan0  00000285   [8]  00 00 00 00 00 00 00 00
  vcan0  00000285   [8]  00 00 00 00 00 00 00 00
  vcan0  00000285   [8]  00 00 00 00 00 00 00 00
  vcan0  00000285   [8]  00 00 00 00 00 00 00 00
  vcan0  00000285   [8]  00 00 00 00 00 00 00 00
  vcan0  00000285   [8]  00 00 00 00 00 00 00 00
  vcan0  00000285   [8]  00 00 00 00 00 00 00 00
  vcan0  00000285   [8]  00 00 00 00 00 00 00 00
  vcan0  00000285   [8]  00 00 00 00 00 00 00 00
  vcan0  00000285   [8]  00 00 00 00 00 00 00 00
  vcan0  00000285   [8]  00 00 00 00 00 00 00 00
  vcan0  00000285   [8]  00 00 00 00 00 00 00 00
  vcan0  00000285   [8]  00 00 00 00 00 00 00 00
  vcan0  00000285   [8]  00 00 00 00 00 00 00 00
  vcan0  00000285   [8]  00 00 00 00 00 00 00 00
  vcan0  00000285   [8]  00 00 00 00 00 00 00 00
  vcan0  00000285   [8]  00 00 00 00 00 00 00 00
  vcan0  00000285   [8]  00 00 00 00 00 00 00 00
  vcan0  00000285   [8]  00 00 00 00 00 00 00 00
  vcan0  00000285   [8]  00 00 00 00 00 00 00 00
  vcan0  00000285   [8]  00 00 00 00 00 00 00 00
  vcan0  00000285   [8]  00 00 00 00 00 00 00 00
  vcan0  00000285   [8]  00 00 00 00 00 00 00 00
  vcan0  00000285   [8]  00 00 00 00 00 00 00 00
  vcan0  00000285   [8]  00 00 00 00 00 00 00 00
  vcan0  00000285   [8]  00 00 00 00 00 00 00 00
  vcan0  00000285   [8]  00 00 00 00 00 00 00 00
